 (000.000000)  can0  0CFDDA8D   [8]  01 00 01 00 0F FF FF FF
 (000.008874)  can0       201   [8]  4D 01 0B 80 00 00 00 00
 (000.000227)  can0       207   [8]  00 00 0B 80 00 00 00 00
 (000.012981)  can0  18500BCE   [8]  00 00 00 3C C1 00 00 01
 (000.006798)  can0  14FF00E4   [8]  00 40 01 00 01 00 00 00
 (000.000240)  can0  14500EE4   [8]  00 00 80 00 00 00 00 00
 (000.002944)  can0  185057CE   [8]  F4 FC C0 FF FF FF FF FF
 (000.006672)  can0       201   [8]  4D 01 0B 00 00 00 00 00
 (000.000272)  can0       207   [8]  00 00 0B 00 00 00 00 00
 (000.000580)  can0  0CFDD7F9   [8]  01 00 01 00 FF FF 0F FF
 (000.029303)  can0  14500CE4   [8]  00 00 00 00 00 00 00 00
 (000.000317)  can0  14500AE4   [8]  00 00 00 00 00 00 00 00
 (000.000318)  can0  18FF32CF   [8]  FF 00 00 00 00 00 00 FF
 (000.000272)  can0       201   [8]  4D 01 0B 80 00 00 00 00
 (000.000262)  can0       207   [8]  00 00 0B 80 00 00 00 00
 (000.000271)  can0       204   [8]  F0 01 00 00 22 00 1E 03
 (000.000277)  can0       404   [8]  03 00 00 00 16 00 1E 03
 (000.000310)  can0  1C50A0EB   [8]  FC FF FE FF 02 00 FE FF
 (000.000291)  can0  1C50A1EB   [8]  04 00 F9 FF 02 00 FE FF
 (000.000306)  can0  1C50A2EB   [8]  FE FF FE FF FC FF 00 00
 (000.000368)  can0  1C50A3EB   [8]  F9 FF F9 FF F9 FF F9 FF
 (000.000251)  can0  1C50A4EB   [8]  00 00 00 00 00 00 00 00
 (000.000311)  can0  1C50AAEB   [8]  1D 06 16 00 00 00 00 00
 (000.000305)  can0  1C50C3EB   [8]  1F 06 A0 0F 00 00 00 00
 (000.016022)  can0  14FF00E4   [8]  00 40 01 00 01 00 00 00
 (000.000321)  can0  14500EE4   [8]  00 00 80 00 00 00 00 00
 (000.009620)  can0       201   [8]  4D 01 0B 00 00 00 00 00
 (000.000271)  can0  0C5049F3   [8]  F2 1F 03 4E 64 47 BD 7C
 (000.000255)  can0       207   [8]  00 00 0B 00 00 00 00 00
 (000.000281)  can0  1C505FF3   [8]  B4 07 00 FF FF FF 1E 00
 (000.000272)  can0  0C5058F3   [8]  50 50 50 50 50 50 50 50
 (000.000301)  can0  0CFDDA8D   [8]  01 00 01 00 0F FF FF FF
 (000.000269)  can0  0C5059F3   [8]  50 50 50 50 50 50 50 FF
 (000.028434)  can0       201   [8]  4D 01 0B 80 00 00 00 00
 (000.000274)  can0       207   [8]  00 00 0B 80 00 00 00 00
 (000.010518)  can0  0CFDD7F9   [8]  01 00 01 00 FF FF 0F FF
 (000.009212)  can0  14FF00E4   [8]  00 40 01 00 01 00 00 00
 (000.000309)  can0  14500EE4   [8]  00 00 80 00 00 00 00 00
 (000.009590)  can0       201   [8]  4D 01 0B 00 00 00 00 00
 (000.000276)  can0       207   [8]  00 00 0B 00 00 00 00 00
 (000.009934)  can0  185009E4   [8]  64 FF FF FF FF FF FF FF
 (000.000300)  can0  1C5024E4   [8]  95 09 00 00 00 00 00 FF
 (000.000318)  can0  1C5040E4   [8]  02 00 00 00 00 00 FF FF
 (000.000358)  can0  0C5056E4   [8]  F5 00 FF FF FF FF FF FF
 (000.000257)  can0  1C50C2EB   [8]  2A 03 28 03 1D 03 1D 03
 (000.008867)  can0  14500CE4   [8]  00 00 00 00 00 00 00 00
 (000.000317)  can0  14500AE4   [8]  00 00 00 00 00 00 00 00
 (000.000299)  can0  18500DE4   [8]  42 4A FF 64 72 38 C6 02
 (000.000307)  can0  185011E4   [8]  FF FF FF FF FF FF FF FF
 (000.000318)  can0  1C501AE4   [8]  00 80 00 00 11 00 00 00
 (000.000318)  can0  1C5020E4   [8]  02 00 00 00 00 00 00 00
 (000.000318)  can0  1C5021E4   [8]  FF FF FF FF FF FF CB 0C
 (000.000301)  can0  1C501CE4   [8]  00 00 11 00 00 00 00 00
 (000.000304)  can0  1C501DE4   [8]  B8 10 73 06 02 03 72 38
 (000.000395)  can0  1C501EE4   [8]  00 00 00 00 00 00 00 00
 (000.000238)  can0  1C5054E4   [8]  00 00 00 00 00 00 00 00
 (000.000320)  can0  1C505AE4   [8]  7D 7D 7D 7D 00 00 00 00
 (000.000299)  can0  18FF31CF   [8]  31 00 00 00 00 00 00 FF
 (000.000325)  can0  18FF32CF   [8]  FF 00 00 00 00 00 00 FF
 (000.000298)  can0  1C5045E4   [8]  FF 26 FF FF FF FF FF FF
 (000.000318)  can0  1C5080E4   [8]  00 00 00 00 00 00 00 00
 (000.000311)  can0  1C508BE4   [8]  3B 0D 11 0D 59 0D FF FF
 (000.000299)  can0  1C508CE4   [8]  FF FF 1E 0A E6 09 FF FF
 (000.000317)  can0  1C508DE4   [8]  DF 02 23 02 FF FF FF FF
 (000.000307)  can0  1C5090E4   [8]  00 00 00 00 00 00 00 00
 (000.000318)  can0  1C5091E4   [8]  00 00 00 00 00 00 00 00
 (000.000318)  can0  1C5092E4   [8]  00 00 00 00 00 00 00 00
 (000.000332)  can0  1C5093E4   [8]  00 00 00 00 00 00 00 00
 (000.000308)  can0  1C5095E4   [8]  00 00 00 FF FF FF FF FF
 (000.000272)  can0       200   [8]  00 00 00 00 00 00 00 00
 (000.000252)  can0       203   [8]  00 00 25 60 00 F4 01 00
 (000.000278)  can0       204   [8]  F0 01 00 00 22 00 1E 03
 (000.000265)  can0       400   [8]  00 00 00 00 00 00 00 00
 (000.000292)  can0       403   [8]  00 00 19 00 00 00 00 00
 (000.000333)  can0       404   [8]  00 00 00 00 16 00 1E 03
 (000.000238)  can0  1C5046E4   [8]  64 F0 01 03 FF 00 00 00
 (000.000319)  can0  1C510DE4   [8]  1D 03 1D 03 FF FF FF FF
 (000.000299)  can0  1C50A0EB   [8]  FC FF 00 00 FE FF FE FF
 (000.000306)  can0  1C50A1EB   [8]  FE FF 02 00 04 00 02 00
 (000.000317)  can0  1C50A2EB   [8]  FE FF FC FF 00 00 02 00
 (000.000302)  can0  1C50A3EB   [8]  FE FF FC FF F9 FF FE FF
 (000.000310)  can0  1C50A4EB   [8]  00 00 00 00 00 00 00 00
 (000.000317)  can0  1C50AAEB   [8]  1D 06 17 00 00 00 00 00
 (000.000299)  can0  1C50C0EB   [8]  29 00 0B A8 01 52 00 00
 (000.000326)  can0  1C50C1EB   [8]  03 00 01 00 00 07 00 00
 (000.000298)  can0  1C50C3EB   [8]  1F 06 A0 0F 00 00 00 00
 (000.000273)  can0       201   [8]  4D 01 0B 80 00 00 00 00
 (000.000275)  can0       207   [8]  00 00 0B 80 00 00 00 00
 (000.006491)  can0  1C5067F3   [8]  00 00 00 00 00 00 00 FF
 (000.001761)  can0  0CFDDA8D   [8]  01 00 01 00 0F FF FF FF
 (000.008871)  can0  14FF00E4   [8]  00 40 01 00 01 00 00 00
 (000.000300)  can0  14500EE4   [8]  00 00 80 00 00 00 00 00
 (000.009575)  can0  185001E4   [8]  FD 05 00 00 01 00 00 00
 (000.000319)  can0  185002E4   [8]  FD 05 00 00 FD 05 00 00
 (000.000318)  can0  185003E4   [8]  FD 05 00 00 FD 05 00 00
 (000.000297)  can0  185008E4   [8]  FD 05 00 00 FD 05 00 00
 (000.000276)  can0       201   [8]  4D 01 0B 00 00 00 00 00
 (000.000265)  can0       207   [8]  00 00 0B 00 00 00 00 00
 (000.000299)  can0  1C50C2EB   [8]  2A 03 28 03 1D 03 1D 03
 (000.011579)  can0  185057CE   [8]  F4 FC C0 FF FF FF FF FF
 (000.007485)  can0  0CFDD7F9   [8]  01 00 01 00 FF FF 0F FF
 (000.009156)  can0       201   [8]  4D 01 0B 80 00 00 00 00
 (000.000276)  can0       207   [8]  00 00 0B 80 00 00 00 00
 (000.019765)  can0  14FF00E4   [8]  00 40 01 00 01 00 00 00
 (000.000300)  can0  14500EE4   [8]  00 00 80 00 00 00 00 00
 (000.009581)  can0       201   [8]  4D 01 0B 00 00 00 00 00
 (000.000273)  can0       207   [8]  00 00 0B 00 00 00 00 00
 (000.009942)  can0  14500CE4   [8]  00 00 00 00 00 00 00 00
 (000.000319)  can0  14500AE4   [8]  00 00 00 00 00 00 00 00
 (000.000291)  can0  18FF32CF   [8]  FF 00 00 00 00 00 00 FF
 (000.000273)  can0       204   [8]  F0 01 00 00 22 00 1E 03
 (000.000265)  can0       404   [8]  00 00 00 00 16 00 1E 03
 (000.000313)  can0  1C50A0EB   [8]  00 00 04 00 04 00 04 00
 (000.000318)  can0  1C50A1EB   [8]  FE FF F7 FF 07 00 00 00
 (000.000304)  can0  1C50A2EB   [8]  04 00 02 00 04 00 02 00
 (000.000302)  can0  1C50A3EB   [8]  00 00 00 00 FE FF FC FF
 (000.000321)  can0  1C50A4EB   [8]  00 00 00 00 00 00 00 00
 (000.000319)  can0  1C50AAEB   [8]  1D 06 17 00 00 00 00 00
 (000.000305)  can0  1C50C3EB   [8]  1F 06 A0 0F 00 00 00 00
 (000.006148)  can0  0C5049F3   [8]  F2 1F 03 4E 64 47 BD 7C
 (000.000299)  can0  1C505FF3   [8]  B4 07 00 FF FF FF 1E 00
 (000.000295)  can0  185012E4   [8]  3F 3F FF F7 FF FF FF FF
 (000.000266)  can0  0C5058F3   [8]  50 50 50 50 50 50 50 50
 (000.000292)  can0  185038E4   [8]  FF 7F DD FF FF FF FF F4
 (000.000280)  can0  0C5059F3   [8]  50 50 50 50 50 50 50 FF
 (000.000291)  can0  0CFDDA8D   [8]  01 00 01 00 0F FF FF FF
 (000.008956)  can0  18FF01E4   [8]  FF FF FF FF FF FF FF FF
 (000.000332)  can0  185000E4   [8]  BC 7D EB 13 00 00 09 00
 (000.000301)  can0  1C5018E4   [8]  00 04 09 11 1A 21 22 FF
 (000.000302)  can0  1C5019E4   [8]  00 0A 19 32 4B 63 64 FF
 (000.000319)  can0  18FEFCE4   [8]  FF FF FF FF FF FF FF FF
 (000.000313)  can0  18FEF7E4   [8]  FF FF FF FF F0 01 F0 01
 (000.000306)  can0  1C501FE4   [8]  64 0A 64 32 64 32 FF FF
 (000.000310)  can0  1C5084E4   [8]  3F 41 40 FF FF FF FF FF
 (000.000309)  can0       201   [8]  4D 01 0B 80 00 00 00 00
 (000.000244)  can0       207   [8]  00 00 0B 80 00 00 00 00
 (000.000305)  can0  1C5069E4   [8]  4A 3E 4D 41 00 00 00 00
 (000.000313)  can0  1C50A5EB   [8]  00 00 00 00 00 00 00 00
 (000.000296)  can0  1C50C2EB   [8]  2A 03 28 03 1D 03 1D 03
 (000.016204)  can0  14FF00E4   [8]  00 40 01 00 01 00 00 00
 (000.000254)  can0  14500EE4   [8]  00 00 80 00 00 00 00 00
 (000.009549)  can0       201   [8]  4D 01 0B 00 00 00 00 00
 (000.000274)  can0       207   [8]  00 00 0B 00 00 00 00 00
 (000.000634)  can0  0CFDD7F9   [8]  01 00 01 00 FF FF 0F FF
 (000.009989)  can0  18FECAF9   [8]  03 FF 00 00 E0 00 FF FF
 (000.019156)  can0       201   [8]  4D 01 0B 80 00 00 00 00
 (000.000268)  can0       207   [8]  00 00 0B 80 00 00 00 00
 (000.009752)  can0  185009E4   [8]  64 FF FF FF FF FF FF FF
 (000.000319)  can0  1C5024E4   [8]  94 09 00 00 00 00 00 FF
 (000.000318)  can0  1C5040E4   [8]  03 00 00 00 00 00 FF FF
 (000.000305)  can0  0C5056E4   [8]  F5 00 FF FF FF FF FF FF
 (000.009296)  can0  14FF00E4   [8]  00 40 01 00 01 00 00 00
 (000.000319)  can0  14500EE4   [8]  00 00 80 00 00 00 00 00
 (000.000305)  can0  18500DE4   [8]  42 4A FF 64 66 38 C6 02
 (000.000323)  can0  185011E4   [8]  FF FF FF FF FF FF FF FF
 (000.000299)  can0  1C501AE4   [8]  00 80 00 00 11 00 00 00
 (000.000317)  can0  1C5020E4   [8]  02 00 00 00 00 00 00 00
 (000.000320)  can0  1C5021E4   [8]  FF FF FF FF FF FF CD 0C
 (000.000304)  can0  1C501CE4   [8]  00 00 11 00 00 00 00 00
 (000.000302)  can0  1C501DE4   [8]  B6 10 72 06 02 03 66 38
 (000.000393)  can0  1C501EE4   [8]  00 00 00 00 00 00 00 00
 (000.000240)  can0  1C5054E4   [8]  00 00 00 00 00 00 00 00
 (000.000317)  can0  1C505AE4   [8]  7D 7D 7D 7D 00 00 00 00
 (000.000318)  can0  18FF31CF   [8]  31 00 00 00 00 00 00 FF
 (000.000215)  can0  1850B3E4   [3]  00 00 00
 (000.000299)  can0  1C5045E4   [8]  FF 26 FF FF FF FF FF FF
 (000.000318)  can0  1C5080E4   [8]  00 00 00 00 00 00 00 00
 (000.000307)  can0  1C508BE4   [8]  38 0D 0F 0D 5A 0D FF FF
 (000.000304)  can0  1C508CE4   [8]  FF FF 1E 0A E6 09 FF FF
 (000.000319)  can0  1C508DE4   [8]  E3 02 25 02 FF FF FF FF
 (000.000363)  can0  1C5090E4   [8]  00 00 00 00 00 00 00 00
 (000.000254)  can0  1C5091E4   [8]  00 00 00 00 00 00 00 00
 (000.000322)  can0  1C5092E4   [8]  00 00 00 00 00 00 00 00
 (000.000315)  can0  1C5093E4   [8]  00 00 00 00 00 00 00 00
 (000.000323)  can0  1C5095E4   [8]  00 00 00 FF FF FF FF FF
 (000.000271)  can0       200   [8]  00 00 00 00 00 00 00 00
 (000.000268)  can0       203   [8]  00 00 24 40 00 F4 01 00
 (000.000280)  can0       400   [8]  00 00 00 00 00 00 00 00
 (000.000286)  can0       403   [8]  00 00 19 00 00 00 00 00
 (000.000284)  can0  1C5046E4   [8]  64 F2 01 02 FF 01 00 00
 (000.000319)  can0  1C510DE4   [8]  1D 03 1D 03 FF FF FF FF
 (000.000305)  can0  1C50C0EB   [8]  29 00 0C A8 01 52 00 00
 (000.000318)  can0  1C50C1EB   [8]  03 00 01 00 00 07 00 00
 (000.000317)  can0  14500CE4   [8]  00 00 00 00 00 00 00 00
 (000.000306)  can0  14500AE4   [8]  00 00 00 00 00 00 00 00
 (000.000331)  can0  18FF32CF   [8]  FF 00 00 00 00 00 00 FF
 (000.000273)  can0       201   [8]  4D 01 0B 00 00 00 00 00
 (000.000275)  can0       207   [8]  00 00 0B 00 00 00 00 00
 (000.000288)  can0  18FECA8D   [8]  03 FF 00 00 E0 00 FF FF
 (000.000241)  can0       204   [8]  F2 01 00 00 22 00 1F 03
 (000.000285)  can0  0CFDDA8D   [8]  01 00 01 00 0F FF FF FF
 (000.000243)  can0       404   [8]  01 00 00 00 16 00 1E 03
 (000.000319)  can0  1C50A0EB   [8]  FE FF 02 00 00 00 00 00
 (000.000304)  can0  1C50A1EB   [8]  FE FF 00 00 07 00 02 00
 (000.000306)  can0  1C50A2EB   [8]  00 00 FC FF 02 00 04 00
 (000.000315)  can0  1C50A3EB   [8]  00 00 FC FF 02 00 04 00
 (000.000320)  can0  1C50A4EB   [8]  00 00 00 00 00 00 00 00
 (000.000253)  can0  18500ECE   [8]  64 64 64 64 64 64 00 01
 (000.000293)  can0  18500FCE   [8]  64 64 64 64 00 00 00 00
 (000.000284)  can0  1C50AAEB   [8]  1D 06 16 00 00 00 00 00
 (000.000302)  can0  1C50C3EB   [8]  1F 06 A0 0F 00 00 00 00
 (000.025151)  can0       201   [8]  4D 01 0B 80 00 00 00 00
 (000.000241)  can0       207   [8]  00 00 0B 80 00 00 00 00
 (000.004054)  can0  185057CE   [8]  F4 FC C0 FF FF FF FF FF
 (000.006484)  can0  0CFDD7F9   [8]  01 00 01 00 FF FF 0F FF
 (000.009290)  can0  14FF00E4   [8]  00 40 01 00 01 00 00 00
 (000.000247)  can0  14500EE4   [8]  00 00 80 00 00 00 00 00
 (000.009583)  can0       201   [8]  4D 01 0B 00 00 00 00 00
 (000.000269)  can0       207   [8]  00 00 0B 00 00 00 00 00
 (000.009773)  can0  1C50C2EB   [8]  2A 03 28 03 1D 03 1D 03
 (000.020027)  can0       201   [8]  4D 01 0B 80 00 00 00 00
 (000.000247)  can0       207   [8]  00 00 0B 80 00 00 00 00
 (000.009371)  can0  0C5049F3   [8]  F2 1F 03 4E 64 47 BD 7C
 (000.000265)  can0  1C505FF3   [8]  B4 07 00 FF FF FF 1E 00
 (000.000269)  can0  0C5058F3   [8]  50 50 50 50 50 50 50 50
 (000.000284)  can0  0C5059F3   [8]  50 50 50 50 50 50 50 FF
 (000.000796)  can0  0CFDDA8D   [8]  01 00 01 00 0F FF FF FF
 (000.009050)  can0  14FF00E4   [8]  00 40 01 00 01 00 00 00
 (000.000307)  can0  14500EE4   [8]  00 00 80 00 00 00 00 00
 (000.000317)  can0  14500CE4   [8]  00 00 00 00 00 00 00 00
 (000.000306)  can0  14500AE4   [8]  00 00 00 00 00 00 00 00
 (000.000319)  can0  18FF32CF   [8]  FF 00 00 00 00 00 00 FF
 (000.000266)  can0       204   [8]  F2 01 00 00 22 00 1F 03
 (000.000293)  can0       404   [8]  1A 00 00 00 16 00 1E 03
 (000.000287)  can0  1C50A0EB   [8]  04 00 02 00 02 00 02 00
 (000.000318)  can0  1C50A1EB   [8]  FC FF FE FF 02 00 00 00
 (000.000395)  can0  1C50A2EB   [8]  04 00 02 00 00 00 04 00
 (000.000221)  can0  1C50A3EB   [8]  02 00 00 00 FC FF FE FF
 (000.000311)  can0  1C50A4EB   [8]  00 00 00 00 00 00 00 00
 (000.000319)  can0  1C50AAEB   [8]  1D 06 16 00 00 00 00 00
 (000.000310)  can0  1C50C3EB   [8]  1F 06 A0 0F 00 00 00 00
 (000.005651)  can0       201   [8]  4D 01 0B 00 00 00 00 00
 (000.000272)  can0       207   [8]  00 00 0B 00 00 00 00 00
 (000.000285)  can0  1C50C2EB   [8]  2A 03 28 03 1D 03 1D 03
 (000.003098)  can0  18500BCE   [8]  00 00 00 3C C1 00 00 01
 (000.017258)  can0  0CFDD7F9   [8]  01 00 01 00 FF FF 0F FF
 (000.009153)  can0       201   [8]  4D 01 0B 80 00 00 00 00
 (000.000273)  can0       207   [8]  00 00 0B 80 00 00 00 00
 (000.019749)  can0  14FF00E4   [8]  00 40 01 00 01 00 00 00
 (000.000317)  can0  14500EE4   [8]  00 00 80 00 00 00 00 00
 (000.009607)  can0       201   [8]  4D 01 0B 00 00 00 00 00
 (000.000271)  can0       207   [8]  00 00 0B 00 00 00 00 00
 (000.009914)  can0  185009E4   [8]  64 FF FF FF FF FF FF FF
 (000.000244)  can0  1C5024E4   [8]  95 09 00 00 00 00 00 FF
 (000.000314)  can0  1C5040E4   [8]  03 00 00 00 00 00 FF FF
 (000.000305)  can0  0C5056E4   [8]  F5 00 FF FF FF FF FF FF
 (000.009136)  can0  18500DE4   [8]  42 4A FF 64 72 38 C6 02
 (000.000325)  can0  185011E4   [8]  FF FF FF FF FF FF FF FF
 (000.000301)  can0  1C501AE4   [8]  00 80 00 00 11 00 00 00
 (000.000372)  can0  1C5020E4   [8]  02 00 00 00 00 00 00 00
 (000.000247)  can0  0CFDDA8D   [8]  01 00 01 00 0F FF FF FF
 (000.000286)  can0  1C5021E4   [8]  FF FF FF FF FF FF CB 0C
 (000.000298)  can0  1C501CE4   [8]  00 00 11 00 00 00 00 00
 (000.000311)  can0  1C501DE4   [8]  B7 10 73 06 02 03 72 38
 (000.000318)  can0  1C501EE4   [8]  00 00 00 00 00 00 00 00
 (000.000315)  can0  1C5054E4   [8]  00 00 00 00 00 00 00 00
 (000.000309)  can0  1C505AE4   [8]  7D 7D 7D 7D 00 00 00 00
 (000.000318)  can0  18FF31CF   [8]  31 00 00 00 00 00 00 FF
 (000.000299)  can0  1C5045E4   [8]  FF 26 FF FF FF FF FF FF
 (000.000322)  can0  1C5080E4   [8]  00 00 00 00 00 00 00 00
 (000.000301)  can0  1C508BE4   [8]  38 0D 11 0D 5A 0D FF FF
 (000.000306)  can0  1C508CE4   [8]  FF FF 1D 0A E4 09 FF FF
 (000.000371)  can0  1C508DE4   [8]  E4 02 23 02 FF FF FF FF
 (000.000259)  can0  1C5090E4   [8]  00 00 00 00 00 00 00 00
 (000.000305)  can0  1C5091E4   [8]  00 00 00 00 00 00 00 00
 (000.000321)  can0  1C5092E4   [8]  00 00 00 00 00 00 00 00
 (000.000315)  can0  1C5093E4   [8]  00 00 00 00 00 00 00 00
 (000.000325)  can0  1C5095E4   [8]  00 00 00 FF FF FF FF FF
 (000.000261)  can0       200   [8]  00 00 00 00 00 00 00 00
 (000.000266)  can0       203   [8]  00 00 24 40 00 F4 01 00
 (000.000285)  can0       400   [8]  00 00 00 00 00 00 00 00
 (000.000270)  can0       403   [8]  00 00 19 00 00 00 00 00
 (000.000301)  can0  1C5046E4   [8]  64 ED 01 02 FF 00 00 00
 (000.000325)  can0  1C510DE4   [8]  1D 03 1D 03 FF FF FF FF
 (000.000298)  can0  1C50C0EB   [8]  29 00 0C A8 01 52 00 00
 (000.000318)  can0  1C50C1EB   [8]  05 00 01 00 00 07 00 00
 (000.001151)  can0       201   [8]  4D 01 0B 80 00 00 00 00
 (000.000278)  can0       207   [8]  00 00 0B 80 00 00 00 00
 (000.009617)  can0  14500CE4   [8]  00 00 00 00 00 00 00 00
 (000.000316)  can0  14500AE4   [8]  00 00 00 00 00 00 00 00
 (000.000313)  can0  18FF32CF   [8]  FF 00 00 00 00 00 00 FF
 (000.000272)  can0       204   [8]  F2 01 00 00 22 00 1F 03
 (000.000269)  can0       404   [8]  00 00 00 00 16 00 1D 03
 (000.000316)  can0  1C50A0EB   [8]  04 00 02 00 04 00 04 00
 (000.000314)  can0  1C50A1EB   [8]  00 00 09 00 04 00 00 00
 (000.000305)  can0  1C50A2EB   [8]  04 00 04 00 FE FF 00 00
 (000.000321)  can0  1C50A3EB   [8]  02 00 FE FF 02 00 FE FF
 (000.000296)  can0  1C50A4EB   [8]  00 00 00 00 00 00 00 00
 (000.000383)  can0  1C50AAEB   [8]  1D 06 17 00 00 00 00 00
 (000.000247)  can0  1C50C3EB   [8]  1F 06 A0 0F 00 00 00 00
 (000.006657)  can0  14FF00E4   [8]  00 40 01 00 01 00 00 00
 (000.000305)  can0  14500EE4   [8]  00 00 80 00 00 00 00 00
 (000.003169)  can0  185057CE   [8]  F4 FC C0 FF FF FF FF FF
 (000.006440)  can0       201   [8]  4D 01 0B 00 00 00 00 00
 (000.000275)  can0       207   [8]  00 00 0B 00 00 00 00 00
 (000.000630)  can0  0CFDD7F9   [8]  01 00 01 00 FF FF 0F FF
 (000.029111)  can0       201   [8]  4D 01 0B 80 00 00 00 00
 (000.000274)  can0       207   [8]  00 00 0B 80 00 00 00 00
 (000.019793)  can0  14FF00E4   [8]  00 40 01 00 01 00 00 00
 (000.000305)  can0  14500EE4   [8]  00 00 80 00 00 00 00 00
 (000.009499)  can0  0C5049F3   [8]  F2 1F 03 4E 64 47 BD 7C
 (000.000301)  can0       201   [8]  4D 01 0B 00 00 00 00 00
 (000.000222)  can0  1C505FF3   [8]  B4 07 00 FF FF FF 1E 00
 (000.000240)  can0       207   [8]  00 00 0B 00 00 00 00 00
 (000.000286)  can0  0C5058F3   [8]  50 50 50 50 50 50 50 50
 (000.000291)  can0  0C5059F3   [8]  50 50 50 50 50 50 50 FF
 (000.000287)  can0  0CFDDA8D   [8]  01 00 01 00 0F FF FF FF
 (000.000282)  can0  1C5067F3   [8]  00 00 00 00 00 00 00 FF
 (000.000272)  can0  0C5048F3   [8]  48 47 48 48 48 48 FF FF
 (000.000296)  can0  0C5047F3   [8]  FF FF FF FF FF FF 5A 57
 (000.000266)  can0  1C5070F3   [8]  C8 C8 C8 C8 C8 C8 C8 C8
 (000.000272)  can0  1C5071F3   [8]  C8 C8 C8 C8 C8 C8 C8 C8
 (000.000287)  can0  1C5072F3   [8]  C8 C8 C8 C8 FF FF FF FF
 (000.000272)  can0  1C5073F3   [8]  C8 C8 C8 C8 C8 C8 C8 C8
 (000.000276)  can0  1C5074F3   [8]  C8 C8 C8 C8 C8 C8 C8 C8
 (000.000282)  can0  1C5075F3   [8]  C8 C8 C8 C8 FF FF FF FF
 (000.000260)  can0  1C5076F3   [8]  C8 C8 C8 C8 C8 C8 C8 C8
 (000.000272)  can0  1C5077F3   [8]  C8 C8 C8 C8 C8 C8 C8 C8
 (000.000287)  can0  1C5078F3   [8]  C8 C8 C8 C8 FF FF FF FF
 (000.000351)  can0  1C505CF3   [8]  00 00 00 00 00 00 00 00
 (000.000220)  can0  1C505EF3   [8]  B3 03 00 46 00 EE 10 00
 (000.000286)  can0  1C5060F3   [8]  51 01 61 01 61 01 61 01
 (000.000286)  can0  18510BF3   [8]  87 0A 4C 0D FF FF FF FF
 (000.000292)  can0  1C50FDF3   [8]  E0 01 00 FF FF FF FF FF
 (000.023919)  can0  14500CE4   [8]  00 00 00 00 00 00 00 00
 (000.000318)  can0  14500AE4   [8]  00 00 00 00 00 00 00 00
 (000.000315)  can0  18FF32CF   [8]  FF 00 00 00 00 00 00 FF
 (000.000268)  can0       201   [8]  4D 01 0B 80 00 00 00 00
 (000.000272)  can0       207   [8]  00 00 0B 80 00 00 00 00
 (000.000272)  can0       204   [8]  F0 01 00 00 22 00 1F 03
 (000.000271)  can0       404   [8]  00 00 00 00 16 00 1D 03
 (000.000315)  can0  1C50A0EB   [8]  02 00 FC FF 00 00 00 00
 (000.000299)  can0  1C50A1EB   [8]  02 00 00 00 00 00 00 00
 (000.000318)  can0  1C50A2EB   [8]  00 00 FE FF 00 00 02 00
 (000.000351)  can0  1C50A3EB   [8]  00 00 FE FF F7 FF F7 FF
 (000.000259)  can0  1C50A4EB   [8]  00 00 00 00 00 00 00 00
 (000.000318)  can0  1C50AAEB   [8]  1E 06 18 00 00 00 00 00
 (000.000311)  can0  1C50C3EB   [8]  1F 06 A0 0F 00 00 00 00
 (000.006839)  can0  0CFDD7F9   [8]  01 00 01 00 FF FF 0F FF
 (000.009148)  can0  14FF00E4   [8]  00 40 01 00 01 00 00 00
 (000.000326)  can0  14500EE4   [8]  00 00 80 00 00 00 00 00
 (000.009578)  can0       201   [8]  4D 01 0B 00 00 00 00 00
 (000.000269)  can0       207   [8]  00 00 0B 00 00 00 00 00
 (000.009861)  can0  1C50C2EB   [8]  2A 03 28 03 1D 03 1D 03
 (000.019983)  can0       201   [8]  4D 01 0B 80 00 00 00 00
 (000.000260)  can0       207   [8]  00 00 0B 80 00 00 00 00
 (000.009747)  can0  185009E4   [8]  64 FF FF FF FF FF FF FF
 (000.000306)  can0  1C5024E4   [8]  97 09 00 00 00 00 00 FF
 (000.000318)  can0  1C5040E4   [8]  03 00 00 00 00 00 FF FF
 (000.000318)  can0  0C5056E4   [8]  F5 00 FF FF FF FF FF FF
 (000.000304)  can0  0CFDDA8D   [8]  01 00 01 00 0F FF FF FF
 (000.002047)  can0  1C505DCE   [8]  EA 07 05 07 00 18 0C 00
 (000.006964)  can0  14FF00E4   [8]  00 40 01 00 01 00 00 00
 (000.000315)  can0  14500EE4   [8]  00 00 80 00 00 00 00 00
 (000.000302)  can0  18500DE4   [8]  42 4A FF 64 4D 38 C6 02
 (000.000324)  can0  185011E4   [8]  FF FF FF FF FF FF FF FF
 (000.000298)  can0  1C501AE4   [8]  00 80 00 00 11 00 00 00
 (000.000318)  can0  1C5020E4   [8]  02 00 00 00 00 00 00 00
 (000.000326)  can0  1C5021E4   [8]  FF FF FF FF FF FF CD 0C
 (000.000298)  can0  1C501CE4   [8]  00 00 11 00 00 00 00 00
 (000.000305)  can0  1C501DE4   [8]  B7 10 70 06 02 03 4D 38
 (000.000363)  can0  1C501EE4   [8]  00 00 00 00 00 00 00 00
 (000.000270)  can0  1C5054E4   [8]  00 00 00 00 00 00 00 00
 (000.000306)  can0  1C505AE4   [8]  7D 7D 7D 7D 00 00 00 00
 (000.000318)  can0  18FF31CF   [8]  31 00 00 00 00 00 00 FF
 (000.000307)  can0  1C5045E4   [8]  FF 26 FF FF FF FF FF FF
 (000.000317)  can0  1C5080E4   [8]  00 00 00 00 00 00 00 00
 (000.000301)  can0  1C508BE4   [8]  3B 0D 0F 0D 57 0D FF FF
 (000.000305)  can0  1C508CE4   [8]  FF FF 15 0A E4 09 FF FF
 (000.000305)  can0  1C508DE4   [8]  E4 02 26 02 FF FF FF FF
 (000.000317)  can0  1C5090E4   [8]  00 00 00 00 00 00 00 00
 (000.000319)  can0  1C5091E4   [8]  01 00 00 00 00 00 00 00
 (000.000318)  can0  1C5092E4   [8]  00 00 00 00 00 00 00 00
 (000.000318)  can0  1C5093E4   [8]  00 00 00 00 00 00 00 00
 (000.000304)  can0  1C5095E4   [8]  00 00 00 FF FF FF FF FF
 (000.000277)  can0       200   [8]  00 00 00 00 00 00 00 00
 (000.000266)  can0       203   [8]  00 00 24 40 00 F4 01 00
 (000.000273)  can0       400   [8]  00 00 00 00 00 00 00 00
 (000.000273)  can0       403   [8]  00 00 19 00 00 00 00 00
 (000.000320)  can0  1C5046E4   [8]  64 F9 01 02 FF 01 00 00
 (000.000299)  can0  1C510DE4   [8]  1D 03 1D 03 FF FF FF FF
 (000.000307)  can0  1C50C0EB   [8]  29 00 0C A8 01 52 00 00
 (000.000317)  can0  1C50C1EB   [8]  04 00 01 00 00 07 00 00
 (000.000466)  can0       201   [8]  4D 01 0B 00 00 00 00 00
 (000.000275)  can0       207   [8]  00 00 0B 00 00 00 00 00
 (000.000305)  can0  1C50C2EB   [8]  2A 03 28 03 1D 03 1D 03
 (000.012745)  can0  185057CE   [8]  F4 FC C0 FF FF FF FF FF
 (000.006788)  can0  14500CE4   [8]  00 00 00 00 00 00 00 00
 (000.000320)  can0  14500AE4   [8]  00 00 00 00 00 00 00 00
 (000.000318)  can0  18FF32CF   [8]  FF 00 00 00 00 00 00 FF
 (000.000287)  can0  0CFDD7F9   [8]  01 00 01 00 FF FF 0F FF
 (000.000245)  can0       204   [8]  F0 01 00 00 22 00 1F 03
 (000.000266)  can0       404   [8]  00 00 00 00 16 00 1D 03
 (000.000318)  can0  1C50A0EB   [8]  02 00 02 00 02 00 02 00
 (000.000333)  can0  1C50A1EB   [8]  FC FF 02 00 00 00 FE FF
 (000.000292)  can0  1C50A2EB   [8]  00 00 00 00 FE FF 04 00
 (000.000299)  can0  1C50A3EB   [8]  FE FF 00 00 F9 FF FC FF
 (000.000331)  can0  1C50A4EB   [8]  00 00 00 00 00 00 00 00
 (000.000295)  can0  1C50AAEB   [8]  1D 06 16 00 00 00 00 00
 (000.000320)  can0  1C50C3EB   [8]  1F 06 A0 0F 00 00 00 00
 (000.006318)  can0       201   [8]  4D 01 0B 80 00 00 00 00
 (000.000274)  can0       207   [8]  00 00 0B 80 00 00 00 00
 (000.019728)  can0  14FF00E4   [8]  00 40 01 00 01 00 00 00
 (000.000300)  can0  14500EE4   [8]  00 00 80 00 00 00 00 00
 (000.009624)  can0       201   [8]  4D 01 0B 00 00 00 00 00
 (000.000274)  can0       207   [8]  00 00 0B 00 00 00 00 00
 (000.019404)  can0  0C5049F3   [8]  F2 1F 03 4E 64 47 BD 7C
 (000.000296)  can0  1C505FF3   [8]  B4 07 00 FF FF FF 1E 00
 (000.000294)  can0  0C5058F3   [8]  50 50 50 50 50 50 50 50
 (000.000273)  can0  0C5059F3   [8]  50 50 50 50 50 50 50 FF
 (000.000839)  can0  0CFDDA8D   [8]  01 00 01 00 0F FF FF FF
 (000.008848)  can0       201   [8]  4D 01 0B 80 00 00 00 00
 (000.000261)  can0       207   [8]  00 00 0B 80 00 00 00 00
 (000.019634)  can0  14FF00E4   [8]  00 40 01 00 01 00 00 00
 (000.000314)  can0  14500EE4   [8]  00 00 80 00 00 00 00 00
 (000.009614)  can0       201   [8]  4D 01 0B 00 00 00 00 00
 (000.000272)  can0       207   [8]  00 00 0B 00 00 00 00 00
 (000.000635)  can0  0CFDD7F9   [8]  01 00 01 00 FF FF 0F FF
 (000.009273)  can0  14500CE4   [8]  00 00 00 00 00 00 00 00
 (000.000311)  can0  14500AE4   [8]  00 00 00 00 00 00 00 00
 (000.000294)  can0  18FF32CF   [8]  FF 00 00 00 00 00 00 FF
 (000.000253)  can0       204   [8]  F0 01 00 00 22 00 1F 03
 (000.000277)  can0       404   [8]  02 00 00 00 16 00 1D 03
 (000.000300)  can0  1C50A0EB   [8]  04 00 FE FF 02 00 04 00
 (000.000318)  can0  1C50A1EB   [8]  02 00 02 00 07 00 02 00
 (000.000307)  can0  1C50A2EB   [8]  00 00 00 00 04 00 04 00
 (000.000319)  can0  1C50A3EB   [8]  00 00 00 00 07 00 FE FF
 (000.000301)  can0  1C50A4EB   [8]  00 00 00 00 00 00 00 00
 (000.000315)  can0  1C50AAEB   [8]  1D 06 17 00 00 00 00 00
 (000.000312)  can0  1C50C3EB   [8]  1F 06 A0 0F 00 00 00 00
 (000.016509)  can0       201   [8]  4D 01 0B 80 00 00 00 00
 (000.000265)  can0       207   [8]  00 00 0B 80 00 00 00 00
 (000.019794)  can0  14FF00E4   [8]  00 40 01 00 01 00 00 00
 (000.000298)  can0  14500EE4   [8]  00 00 80 00 00 00 00 00
 (000.009598)  can0       201   [8]  4D 01 0B 00 00 00 00 00
 (000.000274)  can0       207   [8]  00 00 0B 00 00 00 00 00
 (000.001104)  can0  0CFDDA8D   [8]  01 00 01 00 0F FF FF FF
 (000.008856)  can0  185009E4   [8]  64 FF FF FF FF FF FF FF
 (000.000290)  can0  1C5024E4   [8]  95 09 00 00 00 00 00 FF
 (000.000314)  can0  1C5040E4   [8]  02 00 00 00 00 00 FF FF
 (000.000313)  can0  0C5056E4   [8]  F5 00 FF FF FF FF FF FF
 (000.009080)  can0  18500DE4   [8]  42 4A FF 64 66 38 C6 02
 (000.000311)  can0  185011E4   [8]  FF FF FF FF FF FF FF FF
 (000.000298)  can0  1C501AE4   [8]  00 80 00 00 11 00 00 00
 (000.000389)  can0  1C5020E4   [8]  02 00 00 00 00 00 00 00
 (000.000248)  can0  1C5021E4   [8]  FF FF FF FF FF FF CB 0C
 (000.000317)  can0  1C501CE4   [8]  00 00 11 00 00 00 00 00
 (000.000300)  can0  1C501DE4   [8]  B7 10 72 06 02 03 66 38
 (000.000304)  can0  1C501EE4   [8]  00 00 00 00 00 00 00 00
 (000.000317)  can0  1C5054E4   [8]  00 00 00 00 00 00 00 00
 (000.000374)  can0  1C505AE4   [8]  7D 7D 7D 7D 00 00 00 00
 (000.000251)  can0  18FF31CF   [8]  31 00 00 00 00 00 00 FF
 (000.000291)  can0  18500BCE   [8]  00 00 00 3C C1 00 00 01
 (000.000287)  can0  1C5045E4   [8]  FF 26 FF FF FF FF FF FF
 (000.000311)  can0  1C5080E4   [8]  00 00 00 00 00 00 00 00
 (000.000312)  can0  1C508BE4   [8]  3B 0D 11 0D 5A 0D FF FF
 (000.000299)  can0  1C508CE4   [8]  FF FF 1E 0A E6 09 FF FF
 (000.000304)  can0  1C508DE4   [8]  DB 02 26 02 FF FF FF FF
 (000.000304)  can0  1C5090E4   [8]  00 00 00 00 00 00 00 00
 (000.000319)  can0  1C5091E4   [8]  00 00 00 00 00 00 00 00
 (000.000318)  can0  1C5092E4   [8]  00 00 00 00 00 00 00 00
 (000.000326)  can0  1C5093E4   [8]  00 00 00 00 00 00 00 00
 (000.000317)  can0  1C5095E4   [8]  00 00 00 FF FF FF FF FF
 (000.000268)  can0       200   [8]  00 00 00 00 00 00 00 00
 (000.000273)  can0       203   [8]  00 00 24 40 00 F4 01 00
 (000.000272)  can0       400   [8]  00 00 00 00 00 00 00 00
 (000.000273)  can0       403   [8]  00 00 19 00 00 00 00 00
 (000.000304)  can0  1C5046E4   [8]  64 F0 01 02 FF 20 00 00
 (000.000322)  can0  1C510DE4   [8]  1D 03 1D 03 FF FF FF FF
 (000.000302)  can0  1C50C0EB   [8]  29 00 0C A8 01 52 00 00
 (000.000318)  can0  1C50C1EB   [8]  03 00 01 00 00 07 00 00
 (000.001076)  can0       201   [8]  4D 01 0B 80 00 00 00 00
 (000.000275)  can0       207   [8]  00 00 0B 80 00 00 00 00
 (000.003441)  can0  185057CE   [8]  F4 FC C0 FF FF FF FF FF
 (000.007124)  can0  0CFDD7F9   [8]  01 00 01 00 FF FF 0F FF
 (000.009165)  can0  14FF00E4   [8]  00 40 01 00 01 00 00 00
 (000.000317)  can0  14500EE4   [8]  00 00 80 00 00 00 00 00
 (000.009656)  can0  14500CE4   [8]  00 00 00 00 00 00 00 00
 (000.000319)  can0  14500AE4   [8]  00 00 00 00 00 00 00 00
 (000.000338)  can0  18FF32CF   [8]  FF 00 00 00 00 00 00 FF
 (000.000272)  can0       201   [8]  4D 01 0B 00 00 00 00 00
 (000.000254)  can0       207   [8]  00 00 0B 00 00 00 00 00
 (000.000275)  can0       204   [8]  F8 01 00 00 22 00 1F 03
 (000.000268)  can0       404   [8]  06 00 00 00 16 00 1D 03
 (000.000393)  can0  1C50A0EB   [8]  FE FF 02 00 00 00 FE FF
 (000.000227)  can0  1C50A1EB   [8]  FE FF FE FF 04 00 FE FF
 (000.000318)  can0  1C50A2EB   [8]  00 00 00 00 02 00 FC FF
 (000.000315)  can0  1C50A3EB   [8]  FC FF FE FF FE FF 00 00
 (000.000308)  can0  1C50A4EB   [8]  00 00 00 00 00 00 00 00
 (000.000304)  can0  1C50AAEB   [8]  1D 06 17 00 00 00 00 00
 (000.000318)  can0  1C50C3EB   [8]  1F 06 A0 0F 00 00 00 00
 (000.006073)  can0  1C50C2EB   [8]  2A 03 28 03 1D 03 1D 03
 (000.019978)  can0       201   [8]  4D 01 0B 80 00 00 00 00
 (000.000265)  can0       207   [8]  00 00 0B 80 00 00 00 00
 (000.009929)  can0  0C5049F3   [8]  F2 1F 03 4E 64 47 BE 7C
 (000.000286)  can0  1C505FF3   [8]  B4 07 00 FF FF FF 1E 00
 (000.000265)  can0  0C5058F3   [8]  50 50 50 50 50 50 50 50
 (000.000285)  can0  0C5059F3   [8]  50 50 50 50 50 50 50 FF
 (000.000296)  can0  0CFDDA8D   [8]  01 00 01 00 0F FF FF FF
 (000.008880)  can0  14FF00E4   [8]  00 40 01 00 01 00 00 00
 (000.000313)  can0  14500EE4   [8]  00 00 80 00 00 00 00 00
 (000.009389)  can0       201   [8]  4D 01 0B 00 00 00 00 00
 (000.000274)  can0       207   [8]  00 00 0B 00 00 00 00 00
 (000.000286)  can0  1C50C2EB   [8]  2A 03 28 03 1D 03 1D 03
 (000.020443)  can0  0CFDD7F9   [8]  01 00 01 00 FF FF 0F FF
 (000.009111)  can0       201   [8]  4D 01 0B 80 00 00 00 00
 (000.000276)  can0       207   [8]  00 00 0B 80 00 00 00 00
 (000.019881)  can0  14FF00E4   [8]  00 40 01 00 01 00 00 00
 (000.000241)  can0  14500EE4   [8]  00 00 80 00 00 00 00 00
 (000.000317)  can0  14500CE4   [8]  00 00 00 00 00 00 00 00
 (000.000357)  can0  14500AE4   [8]  00 00 00 00 00 00 00 00
 (000.000267)  can0  18FF32CF   [8]  FF 00 00 00 00 00 00 FF
 (000.000273)  can0       204   [8]  F6 01 00 00 22 00 1F 03
 (000.000266)  can0       404   [8]  01 00 00 00 16 00 1D 03
 (000.000312)  can0  1C50A0EB   [8]  FC FF 00 00 FE FF 00 00
 (000.000299)  can0  1C50A1EB   [8]  02 00 FE FF 04 00 00 00
 (000.000317)  can0  1C50A2EB   [8]  00 00 00 00 02 00 FE FF
 (000.000339)  can0  1C50A3EB   [8]  FE FF 00 00 00 00 FE FF
 (000.000285)  can0  1C50A4EB   [8]  00 00 00 00 00 00 00 00
 (000.000300)  can0  1C50AAEB   [8]  1D 06 17 00 00 00 00 00
 (000.000318)  can0  1C50C3EB   [8]  1F 06 A0 0F 00 00 00 00
 (000.005851)  can0       201   [8]  4D 01 0B 00 00 00 00 00
 (000.000270)  can0       207   [8]  00 00 0B 00 00 00 00 00
 (000.019312)  can0  1C5067F3   [8]  00 00 00 00 00 00 00 FF
 (000.001822)  can0  0CFDDA8D   [8]  01 00 01 00 0F FF FF FF
 (000.008848)  can0       201   [8]  4D 01 0B 80 00 00 00 00
 (000.000192)  can0       207   [8]  00 00 0B 80 00 00 00 00
 (000.009663)  can0  185009E4   [8]  64 FF FF FF FF FF FF FF
 (000.000297)  can0  1C5024E4   [8]  94 09 00 00 00 00 00 FF
 (000.000318)  can0  1C5040E4   [8]  02 00 00 00 00 00 FF FF
 (000.000325)  can0  0C5056E4   [8]  F5 00 FF FF FF FF FF FF
 (000.009289)  can0  14FF00E4   [8]  00 40 01 00 01 00 00 00
 (000.000315)  can0  14500EE4   [8]  00 00 80 00 00 00 00 00
 (000.000312)  can0  185001E4   [8]  FD 05 00 00 01 00 00 00
 (000.000310)  can0  185002E4   [8]  FD 05 00 00 FD 05 00 00
 (000.000307)  can0  185003E4   [8]  FD 05 00 00 FD 05 00 00
 (000.000318)  can0  185008E4   [8]  FD 05 00 00 FD 05 00 00
 (000.000352)  can0  18500DE4   [8]  42 4A FF 64 66 38 C6 02
 (000.000260)  can0  185011E4   [8]  FF FF FF FF FF FF FF FF
 (000.000318)  can0  1C501AE4   [8]  00 80 00 00 11 00 00 00
 (000.000311)  can0  1C5020E4   [8]  02 00 00 00 00 00 00 00
 (000.000306)  can0  1C5021E4   [8]  FF FF FF FF FF FF CB 0C
 (000.000316)  can0  1C501CE4   [8]  00 00 11 00 00 00 00 00
 (000.000294)  can0  1C501DE4   [8]  B8 10 72 06 02 03 66 38
 (000.000324)  can0  1C501EE4   [8]  00 00 00 00 00 00 00 00
 (000.000286)  can0  185057CE   [8]  F4 FC C0 FF FF FF FF FF
 (000.000294)  can0  1C5054E4   [8]  00 00 00 00 00 00 00 00
 (000.000304)  can0  1C505AE4   [8]  7D 7D 7D 7D 00 00 00 00
 (000.000318)  can0  18FF31CF   [8]  31 00 00 00 00 00 00 FF
 (000.000311)  can0  1C5045E4   [8]  FF 26 FF FF FF FF FF FF
 (000.000358)  can0  1C5080E4   [8]  00 00 00 00 00 00 00 00
 (000.000259)  can0  1C508BE4   [8]  3A 0D 0F 0D 5A 0D FF FF
 (000.000299)  can0  1C508CE4   [8]  FF FF 1E 0A E4 09 FF FF
 (000.000318)  can0  1C508DE4   [8]  E1 02 1C 02 FF FF FF FF
 (000.000318)  can0  1C5090E4   [8]  00 00 00 00 00 00 00 00
 (000.000311)  can0  1C5091E4   [8]  00 00 00 00 00 00 00 00
 (000.000318)  can0  1C5092E4   [8]  00 00 00 00 00 00 00 00
 (000.000318)  can0  1C5093E4   [8]  00 00 00 00 00 00 00 00
 (000.000313)  can0  1C5095E4   [8]  00 00 00 FF FF FF FF FF
 (000.000273)  can0       200   [8]  00 00 00 00 00 00 00 00
 (000.000274)  can0       203   [8]  00 00 24 40 00 F4 01 00
 (000.000267)  can0       400   [8]  00 00 00 00 00 00 00 00
 (000.000285)  can0       403   [8]  00 00 19 00 00 00 00 00
 (000.000297)  can0  1C5046E4   [8]  64 F2 01 02 FF 00 00 00
 (000.000306)  can0  1C510DE4   [8]  1D 03 1D 03 FF FF FF FF
 (000.000317)  can0  1C50C0EB   [8]  29 00 0C A8 01 52 00 00
 (000.000281)  can0  0CFDD7F9   [8]  01 00 01 00 FF FF 0F FF
 (000.000291)  can0  1C50C1EB   [8]  03 00 01 00 00 07 00 00
 (000.000267)  can0       201   [8]  4D 01 0B 00 00 00 00 00
 (000.000270)  can0       207   [8]  00 00 0B 00 00 00 00 00
 (000.028245)  can0       201   [8]  4D 01 0B 80 00 00 00 00
 (000.000273)  can0       207   [8]  00 00 0B 80 00 00 00 00
 (000.009818)  can0  14500CE4   [8]  00 00 00 00 00 00 00 00
 (000.000299)  can0  14500AE4   [8]  00 00 00 00 00 00 00 00
 (000.000324)  can0  18FF32CF   [8]  FF 00 00 00 00 00 00 FF
 (000.000265)  can0       204   [8]  F6 01 00 00 22 00 1F 03
 (000.000275)  can0       404   [8]  01 00 00 00 16 00 1D 03
 (000.000309)  can0  1C50A0EB   [8]  FC FF 04 00 FE FF FE FF
 (000.000294)  can0  1C50A1EB   [8]  FE FF 02 00 02 00 02 00
 (000.000320)  can0  1C50A2EB   [8]  00 00 FE FF 00 00 FC FF
 (000.000319)  can0  1C50A3EB   [8]  FE FF FE FF 00 00 FC FF
 (000.000303)  can0  1C50A4EB   [8]  00 00 00 00 00 00 00 00
 (000.000378)  can0  1C50AAEB   [8]  1D 05 17 00 00 00 00 00
 (000.000240)  can0  1C50C3EB   [8]  1F 06 A0 0F 00 00 00 00
 (000.006621)  can0  14FF00E4   [8]  00 40 01 00 01 00 00 00
 (000.000301)  can0  14500EE4   [8]  00 00 80 00 00 00 00 00
 (000.009312)  can0  0C5049F3   [8]  F2 1F 03 4E 64 47 BE 7C
 (000.000290)  can0  1C505FF3   [8]  B4 07 00 FF FF FF 1E 00
 (000.000238)  can0       201   [8]  4D 01 0B 00 00 00 00 00
 (000.000270)  can0  0C5058F3   [8]  50 50 50 50 50 50 50 50
 (000.000255)  can0       207   [8]  00 00 0B 00 00 00 00 00
 (000.000279)  can0  0C5059F3   [8]  50 50 50 50 50 50 50 FF
 (000.000352)  can0  0CFDDA8D   [8]  01 00 01 00 0F FF FF FF
 (000.008874)  can0  185012E4   [8]  3F 3F FF F7 FF FF FF FF
 (000.000310)  can0  185038E4   [8]  FF 7F DD FF FF FF FF F4
 (000.009507)  can0  18FF01E4   [8]  FF FF FF FF FF FF FF FF
 (000.000297)  can0  185000E4   [8]  BC 7D EB 13 00 00 09 00
 (000.000305)  can0  1C5018E4   [8]  01 04 09 11 1A 21 22 FF
 (000.000298)  can0  1C5019E4   [8]  01 0A 19 32 4B 63 64 FF
 (000.000307)  can0  18FEFCE4   [8]  FF FF FF FF FF FF FF FF
 (000.000318)  can0  18FEF7E4   [8]  FF FF FF FF F0 01 F0 01
 (000.000302)  can0  1C501FE4   [8]  64 0A 64 32 64 32 FF FF
 (000.000328)  can0  1C5084E4   [8]  3F 41 40 FF FF FF FF FF
 (000.000325)  can0  1C5069E4   [8]  4A 3E 4C 41 00 00 00 00
 (000.000292)  can0  1C50A5EB   [8]  00 00 00 00 00 00 00 00
 (000.000285)  can0  1C50C2EB   [8]  2A 03 28 03 1D 03 1D 03
 (000.006949)  can0       201   [8]  4D 01 0B 80 00 00 00 00
 (000.000273)  can0       207   [8]  00 00 0B 80 00 00 00 00
 (000.010633)  can0  0CFDD7F9   [8]  01 00 01 00 FF FF 0F FF
 (000.009111)  can0  14FF00E4   [8]  00 40 01 00 01 00 00 00
 (000.000325)  can0  14500EE4   [8]  00 00 80 00 00 00 00 00
 (000.009577)  can0       201   [8]  4D 01 0B 00 00 00 00 00
 (000.000275)  can0       207   [8]  00 00 0B 00 00 00 00 00
 (000.000697)  can0  18FECAF9   [8]  03 FF 00 00 E0 00 FF FF
 (000.009146)  can0  1C50C2EB   [8]  2A 03 28 03 1E 03 1D 03
 (000.020122)  can0  14500CE4   [8]  00 00 00 00 00 00 00 00
 (000.000243)  can0  14500AE4   [8]  00 00 00 00 00 00 00 00
 (000.000317)  can0  18FF32CF   [8]  FF 00 00 00 00 00 00 FF
 (000.000305)  can0       201   [8]  4D 01 0B 80 00 00 00 00
 (000.000240)  can0       207   [8]  00 00 0B 80 00 00 00 00
 (000.000272)  can0       204   [8]  F0 01 00 00 22 00 1F 03
 (000.000266)  can0       404   [8]  00 00 00 00 16 00 1D 03
 (000.000352)  can0  1C50A0EB   [8]  FC FF 04 00 00 00 04 00
 (000.000273)  can0  1C50A1EB   [8]  FE FF FC FF 02 00 00 00
 (000.000299)  can0  1C50A2EB   [8]  00 00 02 00 04 00 00 00
 (000.000317)  can0  1C50A3EB   [8]  02 00 02 00 FE FF F7 FF
 (000.000312)  can0  1C50A4EB   [8]  00 00 00 00 00 00 00 00
 (000.000298)  can0  1C50AAEB   [8]  1E 06 17 00 00 00 00 00
 (000.000318)  can0  1C50C3EB   [8]  1F 06 A0 0F 00 00 00 00
 (000.005895)  can0  1850B3E4   [3]  00 00 00
 (000.001462)  can0  0CFDDA8D   [8]  01 00 01 00 0F FF FF FF
 (000.008828)  can0  14FF00E4   [8]  00 40 01 00 01 00 00 00
 (000.000246)  can0  14500EE4   [8]  00 00 80 00 00 00 00 00
 (000.000911)  can0  18FECA8D   [8]  03 FF 00 00 E0 00 FF FF
 (000.002005)  can0  18500ECE   [8]  64 64 64 64 64 64 00 01
 (000.000284)  can0  18500FCE   [8]  64 64 64 64 00 00 00 00
 (000.006349)  can0       201   [8]  4D 01 0B 00 00 00 00 00
 (000.000275)  can0       207   [8]  00 00 0B 00 00 00 00 00
 (000.000293)  can0  1C50C2EB   [8]  2A 03 28 03 1E 03 1D 03
 (000.009539)  can0  185009E4   [8]  64 FF FF FF FF FF FF FF
 (000.000325)  can0  1C5024E4   [8]  95 09 00 00 00 00 00 FF
 (000.000308)  can0  1C5040E4   [8]  02 00 00 00 00 00 FF FF
 (000.000402)  can0  0C5056E4   [8]  F5 00 FF FF FF FF FF FF
 (000.002221)  can0  185057CE   [8]  F4 FC C0 FF FF FF FF FF
 (000.006843)  can0  18500DE4   [8]  42 4A FF 64 72 38 C6 02
 (000.000312)  can0  185011E4   [8]  FF FF FF FF FF FF FF FF
 (000.000321)  can0  1C501AE4   [8]  00 80 00 00 11 00 00 00
 (000.000283)  can0  0CFDD7F9   [8]  01 00 01 00 FF FF 0F FF
 (000.000291)  can0  1C5020E4   [8]  02 00 00 00 00 00 00 00
 (000.000302)  can0  1C5021E4   [8]  FF FF FF FF FF FF CB 0C
 (000.000313)  can0  1C501CE4   [8]  00 00 11 00 00 00 00 00
 (000.000308)  can0  1C501DE4   [8]  B7 10 73 06 02 03 72 38
 (000.000318)  can0  1C501EE4   [8]  00 00 00 00 00 00 00 00
 (000.000316)  can0  1C5054E4   [8]  00 00 00 00 00 00 00 00
 (000.000308)  can0  1C505AE4   [8]  7D 7D 7D 7D 00 00 00 00
 (000.000317)  can0  18FF31CF   [8]  31 00 00 00 00 00 00 FF
 (000.000306)  can0  1C5045E4   [8]  FF 26 FF FF FF FF FF FF
 (000.000318)  can0  1C5080E4   [8]  00 00 00 00 00 00 00 00
 (000.000306)  can0  1C508BE4   [8]  38 0D 0E 0D 59 0D FF FF
 (000.000299)  can0  1C508CE4   [8]  FF FF 1D 0A E4 09 FF FF
 (000.000304)  can0  1C508DE4   [8]  E3 02 22 02 FF FF FF FF
 (000.000321)  can0  1C5090E4   [8]  00 00 00 00 00 00 00 00
 (000.000320)  can0  1C5091E4   [8]  00 00 00 00 00 00 00 00
 (000.000318)  can0  1C5092E4   [8]  00 00 00 00 00 00 00 00
 (000.000319)  can0  1C5093E4   [8]  00 00 00 00 00 00 00 00
 (000.000303)  can0  1C5095E4   [8]  00 00 00 FF FF FF FF FF
 (000.000382)  can0       200   [8]  00 00 00 00 00 00 00 00
 (000.000180)  can0       203   [8]  00 00 24 40 00 F4 01 00
 (000.000273)  can0       400   [8]  00 00 00 00 00 00 00 00
 (000.000286)  can0       403   [8]  00 00 19 00 00 00 00 00
 (000.000377)  can0  1C5046E4   [8]  64 EF 01 02 FF 00 00 00
 (000.000221)  can0  1C510DE4   [8]  1E 03 1D 03 FF FF FF FF
 (000.000306)  can0  1C50C0EB   [8]  29 00 0C A8 01 52 00 00
 (000.000317)  can0  1C50C1EB   [8]  05 00 01 00 00 07 00 00
 (000.001156)  can0       201   [8]  4D 01 0B 80 00 00 00 00
 (000.000240)  can0       207   [8]  00 00 0B 80 00 00 00 00
 (000.019591)  can0  14FF00E4   [8]  00 40 01 00 01 00 00 00
 (000.000320)  can0  14500EE4   [8]  00 00 80 00 00 00 00 00
 (000.009611)  can0       201   [8]  4D 01 0B 00 00 00 00 00
 (000.000273)  can0       207   [8]  00 00 0B 00 00 00 00 00
 (000.019417)  can0  0C5049F3   [8]  F2 1F 03 4E 64 47 BD 7C
 (000.000284)  can0  1C505FF3   [8]  B4 07 00 FF FF FF 1E 00
 (000.000307)  can0  14500CE4   [8]  00 00 00 00 00 00 00 00
 (000.000266)  can0  0C5058F3   [8]  50 50 50 50 50 50 50 50
 (000.000286)  can0  14500AE4   [8]  00 00 00 00 00 00 00 00
 (000.000289)  can0  0C5059F3   [8]  50 50 50 50 50 50 50 FF
 (000.000282)  can0  0CFDDA8D   [8]  01 00 01 00 0F FF FF FF
 (000.000299)  can0  18FF32CF   [8]  FF 00 00 00 00 00 00 FF
 (000.000252)  can0       204   [8]  F2 01 00 00 22 00 1F 03
 (000.000287)  can0       404   [8]  00 00 00 00 16 00 1D 03
 (000.000301)  can0  1C50A0EB   [8]  04 00 04 00 07 00 07 00
 (000.000317)  can0  1C50A1EB   [8]  02 00 04 00 04 00 04 00
 (000.000317)  can0  1C50A2EB   [8]  04 00 07 00 04 00 02 00
 (000.000304)  can0  1C50A3EB   [8]  04 00 00 00 09 00 04 00
 (000.000311)  can0  1C50A4EB   [8]  00 00 00 00 00 00 00 00
 (000.000305)  can0  1C50AAEB   [8]  1D 06 16 00 00 00 00 00
 (000.000319)  can0  1C50C3EB   [8]  1F 06 A0 0F 00 00 00 00
 (000.005827)  can0       201   [8]  4D 01 0B 80 00 00 00 00
 (000.000222)  can0       207   [8]  00 00 0B 80 00 00 00 00
 (000.012878)  can0  18500BCE   [8]  00 00 00 3C C1 00 00 01
 (000.006774)  can0  14FF00E4   [8]  00 40 01 00 01 00 00 00
 (000.000307)  can0  14500EE4   [8]  00 00 80 00 00 00 00 00
 (000.009605)  can0       201   [8]  4D 01 0B 00 00 00 00 00
 (000.000274)  can0       207   [8]  00 00 0B 00 00 00 00 00
 (000.000694)  can0  0CFDD7F9   [8]  01 00 01 00 FF FF 0F FF
 (000.029043)  can0       201   [8]  4D 01 0B 80 00 00 00 00
 (000.000272)  can0       207   [8]  00 00 0B 80 00 00 00 00
 (000.019763)  can0  14FF00E4   [8]  00 40 01 00 01 00 00 00
 (000.000304)  can0  14500EE4   [8]  00 00 80 00 00 00 00 00
 (000.009621)  can0       201   [8]  4D 01 0B 00 00 00 00 00
 (000.000269)  can0       207   [8]  00 00 0B 00 00 00 00 00
 (000.001156)  can0  0CFDDA8D   [8]  01 00 01 00 0F FF FF FF
 (000.008834)  can0  14500CE4   [8]  00 00 00 00 00 00 00 00
 (000.000316)  can0  14500AE4   [8]  00 00 00 00 00 00 00 00
 (000.000301)  can0  18FF32CF   [8]  FF 00 00 00 00 00 00 FF
 (000.000311)  can0       204   [8]  F2 01 00 00 22 00 1E 03
 (000.000231)  can0       404   [8]  2B 00 00 00 16 00 1D 03
 (000.000311)  can0  1C50A0EB   [8]  00 00 04 00 04 00 02 00
 (000.000322)  can0  1C50A1EB   [8]  04 00 00 00 04 00 04 00
 (000.000296)  can0  1C50A2EB   [8]  02 00 09 00 04 00 02 00
 (000.000305)  can0  1C50A3EB   [8]  00 00 07 00 02 00 FE FF
 (000.000317)  can0  1C50A4EB   [8]  00 00 00 00 00 00 00 00
 (000.000313)  can0  1C50AAEB   [8]  1D 06 17 00 00 00 00 00
 (000.000305)  can0  1C50C3EB   [8]  1F 06 A0 0F 00 00 00 00
 (000.016494)  can0       201   [8]  4D 01 0B 80 00 00 00 00
 (000.000272)  can0       207   [8]  00 00 0B 80 00 00 00 00
 (000.003033)  can0  185057CE   [8]  F4 FC C0 FF FF FF FF FF
 (000.006738)  can0  185009E4   [8]  64 FF FF FF FF FF FF FF
 (000.000303)  can0  1C5024E4   [8]  94 09 00 00 01 00 00 FF
 (000.000319)  can0  1C5040E4   [8]  02 00 00 00 00 00 FF FF
 (000.000285)  can0  0CFDD7F9   [8]  01 00 01 00 FF FF 0F FF
 (000.000292)  can0  0C5056E4   [8]  F5 00 FF FF FF FF FF FF
 (000.008984)  can0  14FF00E4   [8]  00 40 01 00 01 00 00 00
 (000.000314)  can0  14500EE4   [8]  00 00 80 00 00 00 00 00
 (000.000288)  can0  18500DE4   [8]  42 4A FF 64 66 38 C6 02
 (000.000345)  can0  185011E4   [8]  FF FF FF FF FF FF FF FF
 (000.000291)  can0  1C501AE4   [8]  00 80 00 00 11 00 00 00
 (000.000317)  can0  1C5020E4   [8]  02 00 00 00 00 00 00 00
 (000.000312)  can0  1C5021E4   [8]  FF FF FF FF FF FF CB 0C
 (000.000319)  can0  1C501CE4   [8]  00 00 11 00 00 00 00 00
 (000.000297)  can0  1C501DE4   [8]  B6 10 72 06 02 03 66 38
 (000.000318)  can0  1C501EE4   [8]  00 00 00 00 00 00 00 00
 (000.000306)  can0  1C5054E4   [8]  00 00 00 00 00 00 00 00
 (000.000318)  can0  1C505AE4   [8]  7D 7D 7D 7D 00 00 00 00
 (000.000318)  can0  18FF31CF   [8]  31 00 00 00 00 00 00 FF
 (000.000305)  can0  1C5045E4   [8]  FF 26 FF FF FF FF FF FF
 (000.000319)  can0  1C5080E4   [8]  00 00 00 00 00 00 00 00
 (000.000305)  can0  1C508BE4   [8]  37 0D 0E 0D 57 0D FF FF
 (000.000308)  can0  1C508CE4   [8]  FF FF 1E 0A E3 09 FF FF
 (000.000301)  can0  1C508DE4   [8]  E0 02 23 02 FF FF FF FF
 (000.000313)  can0  1C5090E4   [8]  00 00 00 00 00 00 00 00
 (000.000352)  can0  1C5091E4   [8]  00 00 00 00 00 00 00 00
 (000.000273)  can0  1C5092E4   [8]  00 00 00 00 00 00 00 00
 (000.000318)  can0  1C5093E4   [8]  00 00 00 00 00 00 00 00
 (000.000317)  can0  1C5095E4   [8]  00 00 00 FF FF FF FF FF
 (000.000273)  can0       200   [8]  00 00 00 00 00 00 00 00
 (000.000273)  can0       203   [8]  00 00 24 60 00 F4 01 00
 (000.000269)  can0       400   [8]  00 00 00 00 00 00 00 00
 (000.000291)  can0       403   [8]  00 00 19 00 00 00 00 00
 (000.000310)  can0  1C5046E4   [8]  64 F6 01 03 FF 00 00 00
 (000.000293)  can0  1C510DE4   [8]  1E 03 1D 03 FF FF FF FF
 (000.000301)  can0  1C50C0EB   [8]  28 00 0C A8 01 52 00 00
 (000.000322)  can0  1C50C1EB   [8]  03 00 01 00 00 07 00 00
 (000.000569)  can0       201   [8]  4D 01 0B 00 00 00 00 00
 (000.000269)  can0       207   [8]  00 00 0B 00 00 00 00 00
 (000.009758)  can0  1C50C2EB   [8]  2A 03 28 03 1D 03 1D 03
 (000.019947)  can0       201   [8]  4D 01 0B 80 00 00 00 00
 (000.000272)  can0       207   [8]  00 00 0B 80 00 00 00 00
 (000.009556)  can0  0C5049F3   [8]  F2 1F 03 4E 64 47 BD 7C
 (000.000301)  can0  1C505FF3   [8]  B4 07 00 FF FF FF 1E 00
 (000.000279)  can0  0C5058F3   [8]  50 50 50 50 50 50 50 50
 (000.000285)  can0  0C5059F3   [8]  50 50 50 50 50 50 50 FF
 (000.000300)  can0  1C5067F3   [8]  00 00 00 00 00 00 00 FF
 (000.000275)  can0  0C5048F3   [8]  48 47 48 48 48 48 FF FF
 (000.000288)  can0  0CFDDA8D   [8]  01 00 01 00 0F FF FF FF
 (000.000285)  can0  0C5047F3   [8]  FF FF FF FF FF FF 5A 57
 (000.000273)  can0  1C5070F3   [8]  C8 C8 C8 C8 C8 C8 C8 C8
 (000.000279)  can0  1C5071F3   [8]  C8 C8 C8 C8 C8 C8 C8 C8
 (000.000282)  can0  1C5072F3   [8]  C8 C8 C8 C8 FF FF FF FF
 (000.000273)  can0  1C5073F3   [8]  C8 C8 C8 C8 C8 C8 C8 C8
 (000.000273)  can0  1C5074F3   [8]  C8 C8 C8 C8 C8 C8 C8 C8
 (000.000269)  can0  1C5075F3   [8]  C8 C8 C8 C8 FF FF FF FF
 (000.000275)  can0  1C5076F3   [8]  C8 C8 C8 C8 C8 C8 C8 C8
 (000.000272)  can0  1C5077F3   [8]  C8 C8 C8 C8 C8 C8 C8 C8
 (000.000287)  can0  1C5078F3   [8]  C8 C8 C8 C8 FF FF FF FF
 (000.000286)  can0  1C505CF3   [8]  00 00 00 00 00 00 00 00
 (000.000269)  can0  1C505EF3   [8]  B3 03 00 46 00 EE 10 00
 (000.000342)  can0  1C5060F3   [8]  51 01 61 01 61 01 61 01
 (000.000234)  can0  18510BF3   [8]  87 0A 4C 0D FF FF FF FF
 (000.000299)  can0  1C50FDF3   [8]  E0 01 00 FF FF FF FF FF
 (000.004816)  can0  14FF00E4   [8]  00 40 01 00 01 00 00 00
 (000.000317)  can0  14500EE4   [8]  00 00 80 00 00 00 00 00
 (000.009216)  can0  14500CE4   [8]  00 00 00 00 00 00 00 00
 (000.000322)  can0  14500AE4   [8]  00 00 00 00 00 00 00 00
 (000.000314)  can0  18FF32CF   [8]  FF 00 00 00 00 00 00 FF
 (000.000265)  can0       201   [8]  4D 01 0B 00 00 00 00 00
 (000.000276)  can0       207   [8]  00 00 0B 00 00 00 00 00
 (000.000270)  can0       204   [8]  F2 01 00 00 22 00 1E 03
 (000.000269)  can0       404   [8]  00 00 00 00 16 00 1D 03
 (000.000311)  can0  1C50A0EB   [8]  02 00 00 00 02 00 02 00
 (000.000312)  can0  1C50A1EB   [8]  00 00 FE FF 02 00 00 00
 (000.000312)  can0  1C50A2EB   [8]  00 00 07 00 00 00 00 00
 (000.000341)  can0  1C50A3EB   [8]  00 00 00 00 FE FF 00 00
 (000.000276)  can0  1C50A4EB   [8]  00 00 00 00 00 00 00 00
 (000.000317)  can0  1C50AAEB   [8]  1E 06 17 00 00 00 00 00
 (000.000301)  can0  1C50C2EB   [8]  2A 03 28 03 1D 03 1D 03
 (000.000297)  can0  1C50C3EB   [8]  1F 06 A0 0F 00 00 00 00
 (000.016702)  can0  0CFDD7F9   [8]  01 00 01 00 FF FF 0F FF
 (000.009027)  can0       201   [8]  4D 01 0B 80 00 00 00 00
 (000.000274)  can0       207   [8]  00 00 0B 80 00 00 00 00
 (000.019760)  can0  14FF00E4   [8]  00 40 01 00 01 00 00 00
 (000.000319)  can0  14500EE4   [8]  00 00 80 00 00 00 00 00
 (000.009584)  can0       201   [8]  4D 01 0B 00 00 00 00 00
 (000.000274)  can0       207   [8]  00 00 0B 00 00 00 00 00
 (000.021185)  can0  0CFDDA8D   [8]  01 00 01 00 0F FF FF FF
 (000.002878)  can0  1C505DCE   [8]  EA 07 05 07 00 18 0D 00
 (000.005830)  can0       201   [8]  4D 01 0B 80 00 00 00 00
 (000.000271)  can0       207   [8]  00 00 0B 80 00 00 00 00
 (000.019843)  can0  14FF00E4   [8]  00 40 01 00 01 00 00 00
 (000.000250)  can0  14500EE4   [8]  00 00 80 00 00 00 00 00
 (000.000318)  can0  14500CE4   [8]  00 00 00 00 00 00 00 00
 (000.000364)  can0  14500AE4   [8]  00 00 00 00 00 00 00 00
 (000.000266)  can0  18FF32CF   [8]  FF 00 00 00 00 00 00 FF
 (000.000272)  can0       204   [8]  F2 01 00 00 22 00 1E 03
 (000.000266)  can0       404   [8]  00 00 00 00 16 00 1D 03
 (000.000319)  can0  1C50A0EB   [8]  04 00 02 00 04 00 04 00
 (000.000318)  can0  1C50A1EB   [8]  04 00 FE FF 04 00 04 00
 (000.000299)  can0  1C50A2EB   [8]  04 00 00 00 04 00 07 00
 (000.000330)  can0  1C50A3EB   [8]  00 00 02 00 FE FF FE FF
 (000.000302)  can0  1C50A4EB   [8]  00 00 00 00 00 00 00 00
 (000.000299)  can0  1C50AAEB   [8]  1C 06 16 00 00 00 00 00
 (000.000394)  can0  1C50C3EB   [8]  1F 06 A0 0F 00 00 00 00
 (000.000286)  can0  185057CE   [8]  F4 FC C0 FF FF FF FF FF
 (000.005470)  can0       201   [8]  4D 01 0B 00 00 00 00 00
 (000.000270)  can0       207   [8]  00 00 0B 00 00 00 00 00
 (000.000738)  can0  0CFDD7F9   [8]  01 00 01 00 FF FF 0F FF
 (000.009099)  can0  185009E4   [8]  64 FF FF FF FF FF FF FF
 (000.000320)  can0  1C5024E4   [8]  96 09 00 00 00 00 00 FF
 (000.000317)  can0  1C5040E4   [8]  02 00 00 00 00 00 FF FF
 (000.000373)  can0  0C5056E4   [8]  F5 00 FF FF FF FF FF FF
 (000.009132)  can0  18500DE4   [8]  42 4A FF 64 72 38 C6 02
 (000.000285)  can0  185011E4   [8]  FF FF FF FF FF FF FF FF
 (000.000319)  can0  1C501AE4   [8]  00 80 00 00 11 00 00 00
 (000.000393)  can0  1C5020E4   [8]  02 00 00 00 00 00 00 00
 (000.000224)  can0  1C5021E4   [8]  FF FF FF FF FF FF CB 0C
 (000.000320)  can0  1C501CE4   [8]  00 00 11 00 00 00 00 00
 (000.000298)  can0  1C501DE4   [8]  B8 10 73 06 02 03 72 38
 (000.000326)  can0  1C501EE4   [8]  00 00 00 00 00 00 00 00
 (000.000317)  can0  1C5054E4   [8]  00 00 00 00 00 00 00 00
 (000.000318)  can0  1C505AE4   [8]  7D 7D 7D 7D 00 00 00 00
 (000.000311)  can0  18FF31CF   [8]  31 00 00 00 00 00 00 FF
 (000.000295)  can0  1C5045E4   [8]  FF 26 FF FF FF FF FF FF
 (000.000318)  can0  1C5080E4   [8]  00 00 00 00 00 00 00 00
 (000.000306)  can0  1C508BE4   [8]  38 0D 0E 0D 59 0D FF FF
 (000.000318)  can0  1C508CE4   [8]  FF FF 1F 0A E6 09 FF FF
 (000.000305)  can0  1C508DE4   [8]  DC 02 23 02 FF FF FF FF
 (000.000344)  can0  1C5090E4   [8]  00 00 00 00 00 00 00 00
 (000.000275)  can0  1C5091E4   [8]  00 00 00 00 00 00 00 00
 (000.000318)  can0  1C5092E4   [8]  00 00 00 00 00 00 00 00
 (000.000317)  can0  1C5093E4   [8]  00 00 00 00 00 00 00 00
 (000.000324)  can0  1C5095E4   [8]  00 00 00 FF FF FF FF FF
 (000.000272)  can0       200   [8]  00 00 00 00 00 00 00 00
 (000.000272)  can0       203   [8]  00 00 24 60 00 F4 01 00
 (000.000274)  can0       400   [8]  00 00 00 00 00 00 00 00
 (000.000270)  can0       403   [8]  00 00 19 00 00 00 00 00
 (000.000320)  can0  1C5046E4   [8]  64 F0 01 03 FF 00 00 00
 (000.000363)  can0  1C510DE4   [8]  1D 03 1D 03 FF FF FF FF
 (000.000255)  can0  1C50C0EB   [8]  28 00 0C A8 01 52 00 00
 (000.000317)  can0  1C50C1EB   [8]  03 00 01 00 00 07 00 00
 (000.001225)  can0       201   [8]  4D 01 0B 80 00 00 00 00
 (000.000276)  can0       207   [8]  00 00 0B 80 00 00 00 00
 (000.019755)  can0  14FF00E4   [8]  00 40 01 00 01 00 00 00
 (000.000305)  can0  14500EE4   [8]  00 00 80 00 00 00 00 00
 (000.009286)  can0  0C5049F3   [8]  F2 1F 03 4E 64 47 BD 7C
 (000.000284)  can0  1C505FF3   [8]  B4 07 00 FF FF FF 1E 00
 (000.000294)  can0       201   [8]  4D 01 0B 00 00 00 00 00
 (000.000231)  can0  0C5058F3   [8]  50 50 50 50 50 50 50 50
 (000.000237)  can0       207   [8]  00 00 0B 00 00 00 00 00
 (000.000291)  can0  0C5059F3   [8]  50 50 50 50 50 50 50 FF
 (000.000430)  can0  0CFDDA8D   [8]  01 00 01 00 0F FF FF FF
 (000.028630)  can0       201   [8]  4D 01 0B 80 00 00 00 00
 (000.000262)  can0       207   [8]  00 00 0B 80 00 00 00 00
 (000.009765)  can0  14500CE4   [8]  00 00 00 00 00 00 00 00
 (000.000319)  can0  14500AE4   [8]  00 00 00 00 00 00 00 00
 (000.000312)  can0  18FF32CF   [8]  FF 00 00 00 00 00 00 FF
 (000.000285)  can0  0CFDD7F9   [8]  01 00 01 00 FF FF 0F FF
 (000.000261)  can0       204   [8]  F0 01 00 00 22 00 1E 03
 (000.000266)  can0       404   [8]  01 00 00 00 16 00 1D 03
 (000.000303)  can0  1C50A0EB   [8]  07 00 07 00 07 00 04 00
 (000.000312)  can0  1C50A1EB   [8]  09 00 0C 00 04 00 09 00
 (000.000307)  can0  1C50A2EB   [8]  04 00 07 00 07 00 09 00
 (000.000298)  can0  1C50A3EB   [8]  07 00 09 00 04 00 04 00
 (000.000317)  can0  1C50A4EB   [8]  00 00 00 00 00 00 00 00
 (000.000301)  can0  1C50AAEB   [8]  1D 06 16 00 00 00 00 00
 (000.000317)  can0  1C50C3EB   [8]  1F 06 A0 0F 00 00 00 00
 (000.006397)  can0  14FF00E4   [8]  00 40 01 00 01 00 00 00
 (000.000319)  can0  14500EE4   [8]  00 00 80 00 00 00 00 00
 (000.009577)  can0       201   [8]  4D 01 0B 00 00 00 00 00
 (000.000287)  can0       207   [8]  00 00 0B 00 00 00 00 00
 (000.009799)  can0  1C50C2EB   [8]  2A 03 28 03 1D 03 1D 03
 (000.019984)  can0       201   [8]  4D 01 0B 80 00 00 00 00
 (000.000265)  can0       207   [8]  00 00 0B 80 00 00 00 00
